# 测试指南

> **适用版本**: v1.9+ | **最后更新**: 2026-05-19  
> 本文档提供 Modbus RTU 网关的完整测试用例、串口指令及异常场景测试方法。

## 📋 目录

- [⚙️ 常用配置项](#️-常用配置项)
- [🛠️ 测试环境准备](#️-测试环境准备)
- [✅ 基础功能测试](#-基础功能测试)
- [⚠️ 异常场景测试](#️-异常场景测试)
- [🔄 压力测试](#-压力测试)
- [📊 测试结果记录模板](#-测试结果记录模板)

---

## ⚙️ 常用配置项

**修改位置**（编译前调整）：

| 配置项 | 文件路径 | 作用 |
|--------|---------|------|
| **日志开关** | [`system_config.h:18,21`](../App/System/Inc/system_config.h#L18) | 启用/禁用 UART 文本日志、栈水位日志 |
| **看门狗超时** | [`system_ctrl.h:13`](../App/System/Inc/system_ctrl.h#L13) | IWDG 重载值（默认 781 ≈ 2秒） |
| **喂狗间隔** | [`monitor_task.h:8`](../App/Task/Inc/monitor_task.h#L8) | Monitor 任务喂狗周期（默认 500ms） |
| **任务栈大小** | [`system_config.h:14-16`](../App/System/Inc/system_config.h#L14-L16) | LED/UART/Monitor 任务栈空间 |
| **栈告警阈值** | [`monitor_task.h:11-13`](../App/Task/Inc/monitor_task.h#L11-L13) | 各任务栈剩余量低于此值时告警 |

**快速参考**：详细计算公式与典型场景配置见 [README - 配置调优章节](../Readme.md#️-配置调优指南)

---

## 🛠️ 测试环境准备

### 硬件要求
- STM32F103C8T6 开发板（已烧录固件）
- MAX485 RS485 模块 × 2（主机 + 从机）
- USB 转 TTL 模块（用于主机侧通信）
- SG90 舵机 × 2（180° + 360°）
- 5V 独立电源（舵机供电）

### 软件要求
- **串口助手**：SSCOM / 友善串口调试助手 / Putty
- **通信参数**：HEX 模式，波特率 115200，8N1，无校验
- **从机地址**：`0x01`
- **⚠️ CRC 校验配置**：
  - **推荐方式**：启用串口助手的"自动计算 ModbusCRC16"功能，只需输入前6字节指令
  - **手动方式**：若未启用自动计算，需填写完整8字节指令（CRC位参考下方速查表）

#### CRC 校验位速查表（常用指令）

| 功能 | 指令前缀（6字节） | 完整指令（含CRC） |
|------|------------------|------------------|
| 读系统状态 | `01 03 00 03 00 01` | `01 03 00 03 00 01 74 0A` |
| 写角度0° | `01 06 00 04 00 00` | `01 06 00 04 00 00 C8 0B` |
| 写角度90° | `01 06 00 04 00 5A` | `01 06 00 04 00 5A 48 30` |
| 写角度180° | `01 06 00 04 00 B4` | `01 06 00 04 00 B4 C8 7C` |
| 写速度停止 | `01 06 00 05 00 7F` | `01 06 00 05 00 7F D8 2B` |
| 写速度最大正转 | `01 06 00 05 00 FF` | `01 06 00 05 00 FF D9 8B` |
| 写速度最大反转 | `01 06 00 05 00 00` | `01 06 00 05 00 00 99 CB` |

---

## ✅ 基础功能测试

### 测试 2：写 360° 舵机速度

**目的**：验证速度/方向控制逻辑及死区保护机制

| 步骤 | 发送指令（HEX） | 预期响应 | 观察现象 |
|------|----------------|----------|----------|
| 1 | `01 06 00 05 00 00 XX XX` | 原样回显 | 反转最快（PWM=2.5ms） |
| 2 | `01 06 00 05 00 75 XX XX` | 原样回显 | 慢速反转（有效边界，PWM≈1.58ms） |
| 3 | `01 06 00 05 00 7F XX XX` | 原样回显 | 完全停止（中位，PWM=1.5ms） |
| 4 | `01 06 00 05 00 89 XX XX` | 原样回显 | 慢速正转（有效边界，PWM≈1.42ms） |
| 5 | `01 06 00 05 00 FF XX XX` | 原样回显 | 正转最快（PWM=0.5ms） |
| 6 | `01 03 00 05 00 01 XX XX` | `01 03 02 00 7F XX XX` | 读取确认值为0x7F（停止状态） |

**死区保护验证**：
```hex
# 测试死区内值（117-137，即0x75-0x89之外的死区范围调整为0x76-0x88，此处示例取中间值）
# 注意：新死区范围为 ±10 档，即 127±10 -> [117, 137] (0x75-0x89) 为有效动作区边界? 
# 根据需求描述：死区边界从0x7A/0x84调整为0x75/0x89。
# 通常死区是中间不动作的区域。如果0x75和0x89是边界，意味着：
# 0x00-0x74: 反转
# 0x75-0x89: 死区 (静止) ? 或者 0x75是反转极限，0x89是正转极限？
# 参考表格中：0x75为慢速反转，0x89为慢速正转。这意味着死区在 0x76 到 0x88 之间。
# 让我们按照表格逻辑：
# 0x75 (117) -> 动作
# 0x7F (127) -> 停止
# 0x89 (137) -> 动作
# 死区通常围绕中位。如果边界是0x75/0x89，且0x75/0x89本身被描述为"有效边界"，则死区应为 (0x75, 0x89) 之间的值，即 0x76-0x88。

# 测试死区内值（例如 0x7B = 123）
发送：01 06 00 05 00 7B XX XX  （速度=123，在死区 0x76-0x88 内）
预期：01 06 00 05 00 7B XX XX  （原样回显）
观察：舵机完全静止（内部已强制转为127）

# 验证读取值
发送：01 03 00 05 00 01 XX XX
预期：01 03 02 00 7F XX XX     （返回0x7F，证明已被转换）
```

**验证标准**：
- ✅ 响应帧与原请求完全一致
- ✅ 舵机转速随值变化线性可调
- ✅ 死区内值[0x76-0x88]包含边界值0x76和0x88，写入后，舵机保持静止
- ✅ 读取死区写入的寄存器，返回值为0x7F

---

### 测试 3：读系统状态寄存器

**目的**：验证心跳翻转与设备标志

**发送指令**：`01 03 00 03 00 01 74 0A`

**预期响应**（第 0 秒）：`01 03 02 30 00 AC 44`（心跳位 0x3000）  
**预期响应**（第 1 秒）：`01 03 02 30 0F EC 40`（心跳位 0x300F）

**验证方法**：
1. 连续发送该指令，观察返回值的低字节
2. 应看到 `0x3000` ↔ `0x300F` 每秒交替

**位定义**：
- Bit 0~3：心跳计数器（0x0000 ↔ 0x000F，每秒翻转）
- Bit 4：AHT20 传感器就绪标志（0=未接入，1=就绪）
- Bit 5：BMP280 传感器就绪标志（0=未接入，1=就绪）
- Bit 6：舵机驱动就绪标志（0=未初始化，1=就绪）
- Bit 7：UART 通信正常标志（0=异常，1=正常）
- Bit 8~15：保留（固定为 0x30）

---

## ⚠️ 异常场景测试
### 测试 4：CRC 错误帧

**目的**：验证非法帧丢弃机制

**发送错误指令**：`01 03 00 00 00 03 05 CC`（故意修改最后字节，使 CRC 错误，正确CRC为 05 CB）

**预期响应**：**无任何响应**（直接丢弃）

**验证标准**：
- ✅ 串口接收区无任何数据
- ✅ 系统不进入异常状态
- ✅ 后续正常帧仍可响应

---

### 测试 5：越界地址访问

**目的**：验证地址边界保护

**发送指令**：`01 06 00 10 00 01 49 CF `
             ` 01 03 00 10 00 01 85 CF  `（地址 0x0010 超出范围）

**预期响应**：`01 86 02 C3 A1`（异常码 0x02 = 非法数据地址）

**验证标准**：
- ✅ 返回标准异常帧
- ✅ 异常码正确（0x02）
- ✅ 系统不崩溃

---

### 测试 6：非法值写入

**目的**：验证值范围校验

#### 测试 6-1：角度越界

**发送指令**：`01 06 00 04 01 F4 C8 1C`（写入值 500，超出 0~180 范围）

**预期响应**：`01 86 03 02 61 `（异常码 0x03 = 非法数据值）

**验证标准**：
- ✅ 返回标准异常帧
- ✅ 异常码正确（0x03）
- ✅ 寄存器值保持不变

#### 测试 6-2：速度越界

**发送指令**：`01 06 00 05 01 00 XX XX`（写入值 256，超出 0~255 范围）

**预期响应**：`01 86 03 XX XX`（异常码 0x03 = 非法数据值）

**验证标准**：
- ✅ 返回标准异常帧
- ✅ 异常码正确（0x03）
- ✅ 舵机不动作

---

### 测试 7：只读寄存器写入

**目的**：验证只读保护

**发送指令**：`01 06 00 03 00 00 XX XX`（尝试写入系统状态寄存器）

**预期响应**：`01 86 03 XX XX`（异常码 0x03 = 非法数据值）

**验证标准**：
- ✅ 返回标准异常帧
- ✅ 系统状态寄存器值不变

---

## 🔄 压力测试

### 测试 8：高频混合指令测试

**目的**：验证背靠背请求处理能力与长期稳定性

**测试方法**：
1. 使用串口助手"多字符串循环发送"功能
2. 按顺序发送以下 10 条指令（延时见下表）
3. 循环运行 12 分钟（约 540 帧）

| 序号 | 发送指令（HEX） | 功能说明 | 延时 (ms) |
|------|----------------|----------|-----------|
| 1 | `01 06 00 04 00 00 C8 0B` | 写地址 4，角度 0° | 300 |
| 2 | `01 06 00 04 00 5A 48 30` | 写地址 4，角度 90° | 300 |
| 3 | `01 06 00 04 00 B4 C8 7C` | 写地址 4，角度 180° | 300 |
| 4 | `01 06 00 05 00 7F D8 2B` | 写地址 5，速度 127（停止） | 300 |
| 5 | `01 06 00 05 00 FF D9 8B` | 写地址 5，速度 255（正转最大） | 500 |
| 6 | `01 06 00 05 00 00 99 CB` | 写地址 5，速度 0（反转最大） | 500 |
| 7 | `01 03 00 04 00 01 C5 CB` | 读地址 4（验证写入值） | 100 |
| 8 | `01 03 00 05 00 01 94 0B` | 读地址 5（验证写入值） | 100 |
| 9 | `01 03 00 00 00 03 05 CB` | 读地址 0-2（传感器数据） | 100 |
| 10 | `01 03 00 00 00 03 05 CC` | **非法 CRC 测试帧** | 2500 |

**验证标准**：
- ✅ 前 9 条指令全部正常响应（100% 成功率）
- ✅ 第 10 条非法帧无响应
- ✅ MCU 温升 ≤ 3℃（比室温高）
- ✅ LED 规律闪烁（500ms 间隔）
- ✅ 串口无丢包、无乱码

---

### 测试 9：看门狗复位测试

**目的**：验证系统自恢复能力

**前置配置**：确保 [`SYSTEM_USE_IWDG = 1U`](../App/System/Inc/system_ctrl.h#L9)

**测试方法**：
1. 临时注释掉 [`monitor_task.c`](../App/Task/Src/monitor_task.c) 中的喂狗调用
2. 重新编译烧录
3. 观察系统行为

**预期现象**：
- ✅ 系统运行约 5 秒后自动复位
- ✅ 串口输出 `[RESET] Independent Watchdog timeout`
- ✅ 恢复喂狗逻辑后系统正常运行

**验证标准**：
- ✅ 复位时间准确（±10% 误差）
- ✅ 复位后系统恢复正常
- ✅ 日志记录复位原因

---

### 测试 10：栈水位监控测试

**目的**：验证任务栈溢出预防机制

**前置配置**：启用 [`SYSTEM_STACK_WATERMARK_LOG_ENABLE = 1U`](../App/System/Inc/system_config.h#L18)

**测试方法**：
1. 确认宏定义已启用
2. 重新编译烧录
3. 观察串口输出的栈水位日志（默认每 60 秒输出一次）

**预期日志**：
```
LED Stack Watermark: 36 words
UART Stack Watermark: 78 words
Monitor Stack Watermark: 56 words
```

**验证标准**：
- ✅ 所有任务栈剩余空间 > 初始值的 30%（工业级最低要求）
- ✅ 无栈溢出告警
- ✅ 关闭宏后不再输出日志

---
**返回 [README.md](../Readme.md)** | **[硬件接线指南](硬件接线指南.md)** | **[寄存器映射表](寄存器映射表.md)**
